T25FC 4639:773 SEGGER J-Link V6.30h Log File (0021ms, 12198ms total)
T25FC 4639:773 DLL Compiled: Mar 16 2018 18:02:51 (0021ms, 12198ms total)
T25FC 4639:773 Logging started @ 2021-03-13 09:48 (0021ms, 12198ms total)
T25FC 4639:794 JLINK_SetWarnOutHandler(...) (0000ms, 12198ms total)
T25FC 4639:794 JLINK_OpenEx(...)
Firmware: J-Link V9 compiled Mar  2 2018 17:07:57
Hardware: V9.60
S/N: 59602504
Feature(s): GDB, RDI, FlashBP, FlashDL, JFlash
TELNET listener socket opened on port 19021WEBSRV 
Starting webserver (0116ms, 12314ms total)
T25FC 4639:794 WEBSRV Webserver running on local port 19080 (0117ms, 12315ms total)
T25FC 4639:794   returns O.K. (0117ms, 12315ms total)
T25FC 4639:912 JLINK_GetEmuCaps()  returns 0xB9FF7BBF (0000ms, 12315ms total)
T25FC 4639:912 JLINK_TIF_GetAvailable(...) (0001ms, 12316ms total)
T25FC 4639:913 JLINK_SetErrorOutHandler(...) (0000ms, 12316ms total)
T25FC 4639:913 JLINK_ExecCommand("ProjectFile = "F:\JK1222\Project\RVMDK£¨uv5£©\JLinkSettings.ini"", ...).   returns 0x00 (0002ms, 12318ms total)
T25FC 4639:925 JLINK_ExecCommand("Device = STM32F429IGTx", ...). Device "STM32F429IG" selected.  returns 0x00 (0012ms, 12330ms total)
T25FC 4639:937 JLINK_ExecCommand("DisableConnectionTimeout", ...).   returns 0x01 (0000ms, 12330ms total)
T25FC 4639:937 JLINK_GetHardwareVersion()  returns 0x17700 (0000ms, 12330ms total)
T25FC 4639:937 JLINK_GetDLLVersion()  returns 63008 (0000ms, 12330ms total)
T25FC 4639:937 JLINK_GetFirmwareString(...) (0000ms, 12330ms total)
T25FC 4639:970 JLINK_GetDLLVersion()  returns 63008 (0000ms, 12330ms total)
T25FC 4639:970 JLINK_GetCompileDateTime() (0000ms, 12330ms total)
T25FC 4639:980 JLINK_GetFirmwareString(...) (0000ms, 12330ms total)
T25FC 4639:991 JLINK_GetHardwareVersion()  returns 0x17700 (0000ms, 12330ms total)
T25FC 4640:032 JLINK_TIF_Select(JLINKARM_TIF_SWD)  returns 0x00 (0004ms, 12334ms total)
T25FC 4640:036 JLINK_SetSpeed(5000) (0001ms, 12335ms total)
T25FC 4640:037 JLINK_GetId() >0x10B TIF>Found SW-DP with ID 0x2BA01477 >0x0D TIF> >0x28 TIF> >0x0D TIF> >0x28 TIF> >0x0D TIF> >0x28 TIF> >0x0D TIF> >0x28 TIF> >0x0D TIF> >0x21 TIF> >0x0D TIF> >0x28 TIF> >0x0D TIF> >0x28 TIF> >0x0D TIF> >0x28 TIF> >0x0D TIF> >0x21 TIF> >0x0D TIF> >0x21 TIF> >0x0D TIF> >0x28 TIF> >0x0D TIF> >0x21 TIF> >0x0D TIF> >0x21 TIF> >0x0D TIF> >0x28 TIF> >0x0D TIF> >0x21 TIF> >0x0D TIF> >0x21 TIF> >0x0D TIF> >0x28 TIF> >0x0D TIF> >0x21 TIF> >0x0D TIF> >0x21 TIF> >0x0D TIF>
 >0x28 TIF> >0x0D TIF> >0x21 TIF> >0x0D TIF> >0x21 TIF> >0x0D TIF> >0x28 TIF> >0x0D TIF> >0x21 TIF> >0x0D TIF> >0x21 TIF> >0x0D TIF> >0x28 TIF> >0x0D TIF> >0x21 TIF> >0x0D TIF> >0x21 TIF> >0x10B TIF>Found SW-DP with ID 0x2BA01477 >0x0D TIF> >0x28 TIF> >0x0D TIF> >0x28 TIF> >0x0D TIF> >0x28 TIF> >0x0D TIF> >0x28 TIF> >0x0D TIF> >0x21 TIF> >0x0D TIF> >0x28 TIF>Scanning AP map to find all available APs >0x0D TIF> >0x28 TIF> >0x0D TIF> >0x21 TIF> >0x0D TIF> >0x21 TIF> >0x0D TIF> >0x28 TIF> >0x0D TIF>
 >0x21 TIF> >0x0D TIF> >0x21 TIF>AP[1]: Stopped AP scan as end of AP map has been reachedAP[0]: AHB-AP (IDR: 0x24770011)Iterating through AP map to find AHB-AP to use >0x42 TIF> >0x28 TIF> >0x0D TIF> >0x28 TIF> >0x0D TIF> >0x21 TIF> >0x0D TIF> >0x21 TIF> >0x42 TIF> >0x28 TIF> >0x0D TIF> >0x28 TIF> >0x0D TIF> >0x28 TIF> >0x0D TIF> >0x21 TIF> >0x0D TIF> >0x21 TIF>AP[0]: Core foundAP[0]: AHB-AP ROM base: 0xE00FF000 >0x0D TIF> >0x28 TIF> >0x0D TIF> >0x28 TIF> >0x0D TIF> >0x28 TIF> >0x0D TIF> >0x21 TIF>
 >0x0D TIF> >0x21 TIF>CPUID register: 0x410FC241. Implementer code: 0x41 (ARM)Found Cortex-M4 r0p1, Little endian. -- CPU_ReadMem(4 bytes @ 0xE000EDF0) -- CPU_WriteMem(4 bytes @ 0xE000EDF0) -- CPU_ReadMem(4 bytes @ 0xE0002000)FPUnit: 6 code (BP) slots and 2 literal slots -- CPU_ReadMem(4 bytes @ 0xE000EDFC) -- CPU_WriteMem(4 bytes @ 0xE000EDFC) -- CPU_ReadMem(4 bytes @ 0xE0001000) -- CPU_WriteMem(4 bytes @ 0xE0001000) -- CPU_ReadMem(4 bytes @ 0xE000ED88) -- CPU_WriteMem(4 bytes @ 0xE000ED88)
 -- CPU_ReadMem(4 bytes @ 0xE000ED88) -- CPU_WriteMem(4 bytes @ 0xE000ED88)CoreSight components:ROMTbl[0] @ E00FF000 -- CPU_ReadMem(16 bytes @ 0xE00FF000) -- CPU_ReadMem(16 bytes @ 0xE000EFF0) -- CPU_ReadMem(16 bytes @ 0xE000EFE0)ROMTbl[0][0]: E000E000, CID: B105E00D, PID: 000BB00C SCS-M7 -- CPU_ReadMem(16 bytes @ 0xE0001FF0) -- CPU_ReadMem(16 bytes @ 0xE0001FE0)ROMTbl[0][1]: E0001000, CID: B105E00D, PID: 003BB002 DWT -- CPU_ReadMem(16 bytes @ 0xE0002FF0) -- CPU_ReadMem(16 bytes @ 0xE0002FE0)
ROMTbl[0][2]: E0002000, CID: B105E00D, PID: 002BB003 FPB -- CPU_ReadMem(16 bytes @ 0xE0000FF0) -- CPU_ReadMem(16 bytes @ 0xE0000FE0)ROMTbl[0][3]: E0000000, CID: B105E00D, PID: 003BB001 ITM -- CPU_ReadMem(16 bytes @ 0xE00FF010) -- CPU_ReadMem(16 bytes @ 0xE0040FF0) -- CPU_ReadMem(16 bytes @ 0xE0040FE0)ROMTbl[0][4]: E0040000, CID: B105900D, PID: 000BB9A1 TPIU -- CPU_ReadMem(16 bytes @ 0xE0041FF0) -- CPU_ReadMem(16 bytes @ 0xE0041FE0)ROMTbl[0][5]: E0041000, CID: B105900D, PID: 000BB925 ETM >0x0D TIF>
 >0x21 TIF>  returns 0x2BA01477 (0543ms, 12878ms total)
T25FC 4640:580 JLINK_GetDLLVersion()  returns 63008 (0000ms, 12878ms total)
T25FC 4640:580 JLINK_CORE_GetFound()  returns 0xE0000FF (0000ms, 12878ms total)
T25FC 4640:580 JLINK_GetDebugInfo(0x100 = JLINKARM_ROM_TABLE_ADDR_INDEX) -- Value=0xE00FF000  returns 0x00 (0000ms, 12878ms total)
T25FC 4640:592 JLINK_GetDebugInfo(0x100 = JLINKARM_ROM_TABLE_ADDR_INDEX) -- Value=0xE00FF000  returns 0x00 (0000ms, 12878ms total)
T25FC 4640:592 JLINK_GetDebugInfo(0x101 = JLINKARM_DEBUG_INFO_ETM_ADDR_INDEX) -- Value=0xE0041000  returns 0x00 (0000ms, 12878ms total)
T25FC 4640:592 JLINK_ReadMemEx(0xE0041FD0, 0x0020 Bytes, ..., Flags = 0x02000004) -- CPU_ReadMem(32 bytes @ 0xE0041FD0) - Data: 04 00 00 00 00 00 00 00 00 00 00 00 00 00 00 00 ...  returns 0x20 (0001ms, 12879ms total)
T25FC 4640:593 JLINK_GetDebugInfo(0x102 = JLINKARM_DEBUG_INFO_MTB_ADDR_INDEX) -- Value=0x00000000  returns 0x00 (0000ms, 12879ms total)
T25FC 4640:593 JLINK_GetDebugInfo(0x103 = JLINKARM_DEBUG_INFO_TPIU_ADDR_INDEX) -- Value=0xE0040000  returns 0x00 (0000ms, 12879ms total)
T25FC 4640:593 JLINK_GetDebugInfo(0x104 = JLINKARM_DEBUG_INFO_ITM_ADDR_INDEX) -- Value=0xE0000000  returns 0x00 (0000ms, 12879ms total)
T25FC 4640:593 JLINK_GetDebugInfo(0x105 = JLINKARM_DEBUG_INFO_DWT_ADDR_INDEX) -- Value=0xE0001000  returns 0x00 (0000ms, 12879ms total)
T25FC 4640:593 JLINK_GetDebugInfo(0x106 = JLINKARM_DEBUG_INFO_FPB_ADDR_INDEX) -- Value=0xE0002000  returns 0x00 (0000ms, 12879ms total)
T25FC 4640:593 JLINK_GetDebugInfo(0x107 = JLINKARM_DEBUG_INFO_NVIC_ADDR_INDEX) -- Value=0xE000E000  returns 0x00 (0000ms, 12879ms total)
T25FC 4640:593 JLINK_GetDebugInfo(0x10C = JLINKARM_DEBUG_INFO_DBG_ADDR_INDEX) -- Value=0xE000EDF0  returns 0x00 (0000ms, 12879ms total)
T25FC 4640:593 JLINK_GetDebugInfo(0x01 = Unknown) -- Value=0x00000001  returns 0x00 (0000ms, 12879ms total)
T25FC 4640:593 JLINK_ReadMemU32(0xE000ED00, 0x0001 Items, ...) -- CPU_ReadMem(4 bytes @ 0xE000ED00) - Data: 41 C2 0F 41  returns 0x01 (0001ms, 12880ms total)
T25FC 4640:594 JLINK_GetDebugInfo(0x10F = JLINKARM_DEBUG_INFO_HAS_CORTEX_M_SECURITY_EXT_INDEX) -- Value=0x00000000  returns 0x00 (0000ms, 12880ms total)
T25FC 4640:594 JLINK_SetResetType(JLINKARM_CM3_RESET_TYPE_NORMAL)  returns JLINKARM_CM3_RESET_TYPE_NORMAL (0000ms, 12880ms total)
T25FC 4640:594 JLINK_Reset() -- CPU is running -- CPU_WriteMem(4 bytes @ 0xE000EDF0) -- CPU is running -- CPU_WriteMem(4 bytes @ 0xE000EDFC)Reset: Halt core after reset via DEMCR.VC_CORERESET. >0x35 TIF>Reset: Reset device via AIRCR.SYSRESETREQ. -- CPU is running -- CPU_WriteMem(4 bytes @ 0xE000ED0C) >0x0D TIF> >0x28 TIF> -- CPU_ReadMem(4 bytes @ 0xE000EDF0) -- CPU_ReadMem(4 bytes @ 0xE000EDF0) -- CPU is running -- CPU_WriteMem(4 bytes @ 0xE000EDF0) -- CPU is running -- CPU_WriteMem(4 bytes @ 0xE000EDFC)
 -- CPU_ReadMem(4 bytes @ 0xE000EDF0) -- CPU_WriteMem(4 bytes @ 0xE0002000) -- CPU_ReadMem(4 bytes @ 0xE000EDFC) -- CPU_ReadMem(4 bytes @ 0xE0001000) (0094ms, 12974ms total)
T25FC 4640:688 JLINK_Halt()  returns 0x00 (0000ms, 12974ms total)
T25FC 4640:688 JLINK_ReadMemU32(0xE000EDF0, 0x0001 Items, ...) -- CPU_ReadMem(4 bytes @ 0xE000EDF0) - Data: 03 00 03 00  returns 0x01 (0001ms, 12975ms total)
T25FC 4640:689 JLINK_WriteU32(0xE000EDF0, 0xA05F0003) -- CPU_WriteMem(4 bytes @ 0xE000EDF0)  returns 0x00 (0001ms, 12976ms total)
T25FC 4640:690 JLINK_WriteU32(0xE000EDFC, 0x01000000) -- CPU_WriteMem(4 bytes @ 0xE000EDFC)  returns 0x00 (0001ms, 12977ms total)
T25FC 4640:770 JLINK_GetHWStatus(...)  returns 0x00 (0001ms, 12978ms total)
T25FC 4640:810 JLINK_GetNumBPUnits(Type = 0xFFFFFF00)  returns 0x06 (0001ms, 12979ms total)
T25FC 4640:811 JLINK_GetNumBPUnits(Type = 0xF0)  returns 0x2000 (0000ms, 12979ms total)
T25FC 4640:811 JLINK_GetNumWPUnits()  returns 0x04 (0000ms, 12979ms total)
T25FC 4640:854 JLINK_GetSpeed()  returns 0xFA0 (0000ms, 12979ms total)
T25FC 4640:884 JLINK_ReadMemU32(0xE000E004, 0x0001 Items, ...) -- CPU_ReadMem(4 bytes @ 0xE000E004) - Data: 02 00 00 00  returns 0x01 (0001ms, 12980ms total)
T25FC 4640:885 JLINK_ReadMemU32(0xE000E004, 0x0001 Items, ...) -- CPU_ReadMem(4 bytes @ 0xE000E004) - Data: 02 00 00 00  returns 0x01 (0001ms, 12981ms total)
T25FC 4640:886 JLINK_WriteMemEx(0xE0001000, 0x001C Bytes, ..., Flags = 0x02000004) - Data: 01 00 00 00 00 00 00 00 00 00 00 00 00 00 00 00 ... -- CPU_WriteMem(28 bytes @ 0xE0001000)  returns 0x1C (0002ms, 12983ms total)
T25FC 4640:888 JLINK_Halt()  returns 0x00 (0000ms, 12983ms total)
T25FC 4640:888 JLINK_IsHalted()  returns TRUE (0001ms, 12984ms total)
T25FC 4640:893 JLINK_WriteMem(0x20000000, 0x0180 Bytes, ...) - Data: 00 BE 0A E0 0D 78 2D 06 68 40 08 24 40 00 00 D3 ... -- CPU_WriteMem(384 bytes @ 0x20000000)  returns 0x180 (0002ms, 12985ms total)
T25FC 4640:895 JLINK_WriteReg(R0, 0x08000000)  returns 0x00 (0000ms, 12985ms total)
T25FC 4640:895 JLINK_WriteReg(R1, 0x017D7840)  returns 0x00 (0000ms, 12985ms total)
T25FC 4640:895 JLINK_WriteReg(R2, 0x00000001)  returns 0x00 (0000ms, 12985ms total)
T25FC 4640:895 JLINK_WriteReg(R3, 0x00000000)  returns 0x00 (0000ms, 12985ms total)
T25FC 4640:895 JLINK_WriteReg(R4, 0x00000000)  returns 0x00 (0000ms, 12985ms total)
T25FC 4640:895 JLINK_WriteReg(R5, 0x00000000)  returns 0x00 (0000ms, 12985ms total)
T25FC 4640:895 JLINK_WriteReg(R6, 0x00000000)  returns 0x00 (0000ms, 12985ms total)
T25FC 4640:895 JLINK_WriteReg(R7, 0x00000000)  returns 0x00 (0000ms, 12985ms total)
T25FC 4640:895 JLINK_WriteReg(R8, 0x00000000)  returns 0x00 (0000ms, 12985ms total)
T25FC 4640:895 JLINK_WriteReg(R9, 0x2000017C)  returns 0x00 (0000ms, 12985ms total)
T25FC 4640:895 JLINK_WriteReg(R10, 0x00000000)  returns 0x00 (0000ms, 12985ms total)
T25FC 4640:895 JLINK_WriteReg(R11, 0x00000000)  returns 0x00 (0000ms, 12985ms total)
T25FC 4640:895 JLINK_WriteReg(R12, 0x00000000)  returns 0x00 (0000ms, 12985ms total)
T25FC 4640:895 JLINK_WriteReg(R13 (SP), 0x20001000)  returns 0x00 (0000ms, 12985ms total)
T25FC 4640:895 JLINK_WriteReg(R14, 0x20000001)  returns 0x00 (0000ms, 12985ms total)
T25FC 4640:895 JLINK_WriteReg(R15 (PC), 0x20000054)  returns 0x00 (0000ms, 12985ms total)
T25FC 4640:895 JLINK_WriteReg(XPSR, 0x01000000)  returns 0x00 (0000ms, 12985ms total)
T25FC 4640:895 JLINK_WriteReg(MSP, 0x20001000)  returns 0x00 (0000ms, 12985ms total)
T25FC 4640:895 JLINK_WriteReg(PSP, 0x20001000)  returns 0x00 (0000ms, 12985ms total)
T25FC 4640:895 JLINK_WriteReg(CFBP, 0x00000000)  returns 0x00 (0000ms, 12985ms total)
T25FC 4640:895 JLINK_SetBPEx(Addr = 0x20000000, Type = 0xFFFFFFF2) -- CPU_ReadMem(2 bytes @ 0x20000000)  returns 0x00000001 (0001ms, 12986ms total)
T25FC 4640:896 JLINK_Go() -- CPU_WriteMem(2 bytes @ 0x20000000) -- CPU_ReadMem(4 bytes @ 0xE0001000) -- CPU_WriteMem(4 bytes @ 0xE0002008) -- CPU_WriteMem(4 bytes @ 0xE000200C) -- CPU_WriteMem(4 bytes @ 0xE0002010) -- CPU_WriteMem(4 bytes @ 0xE0002014) -- CPU_WriteMem(4 bytes @ 0xE0002018) -- CPU_WriteMem(4 bytes @ 0xE000201C) -- CPU_WriteMem(4 bytes @ 0xE0001004) (0006ms, 12992ms total)
T25FC 4640:902 JLINK_IsHalted() -- CPU_ReadMem(2 bytes @ 0x20000000)  returns TRUE (0005ms, 12997ms total)
T25FC 4640:907 JLINK_ReadReg(R15 (PC))  returns 0x20000000 (0000ms, 12992ms total)
T25FC 4640:907 JLINK_ClrBPEx(BPHandle = 0x00000001)  returns 0x00 (0000ms, 12992ms total)
T25FC 4640:907 JLINK_ReadReg(R0)  returns 0x00000000 (0000ms, 12992ms total)
T25FC 4640:908 JLINK_WriteReg(R0, 0x08040000)  returns 0x00 (0000ms, 12992ms total)
T25FC 4640:908 JLINK_WriteReg(R1, 0x00020000)  returns 0x00 (0000ms, 12992ms total)
T25FC 4640:908 JLINK_WriteReg(R2, 0x000000FF)  returns 0x00 (0000ms, 12992ms total)
T25FC 4640:908 JLINK_WriteReg(R3, 0x00000000)  returns 0x00 (0000ms, 12992ms total)
T25FC 4640:908 JLINK_WriteReg(R4, 0x00000000)  returns 0x00 (0000ms, 12992ms total)
T25FC 4640:908 JLINK_WriteReg(R5, 0x00000000)  returns 0x00 (0000ms, 12992ms total)
T25FC 4640:908 JLINK_WriteReg(R6, 0x00000000)  returns 0x00 (0000ms, 12992ms total)
T25FC 4640:908 JLINK_WriteReg(R7, 0x00000000)  returns 0x00 (0000ms, 12992ms total)
T25FC 4640:908 JLINK_WriteReg(R8, 0x00000000)  returns 0x00 (0000ms, 12992ms total)
T25FC 4640:908 JLINK_WriteReg(R9, 0x2000017C)  returns 0x00 (0000ms, 12992ms total)
T25FC 4640:908 JLINK_WriteReg(R10, 0x00000000)  returns 0x00 (0000ms, 12992ms total)
T25FC 4640:908 JLINK_WriteReg(R11, 0x00000000)  returns 0x00 (0000ms, 12992ms total)
T25FC 4640:908 JLINK_WriteReg(R12, 0x00000000)  returns 0x00 (0000ms, 12992ms total)
T25FC 4640:908 JLINK_WriteReg(R13 (SP), 0x20001000)  returns 0x00 (0000ms, 12992ms total)
T25FC 4640:908 JLINK_WriteReg(R14, 0x20000001)  returns 0x00 (0000ms, 12992ms total)
T25FC 4640:908 JLINK_WriteReg(R15 (PC), 0x20000020)  returns 0x00 (0000ms, 12992ms total)
T25FC 4640:908 JLINK_WriteReg(XPSR, 0x01000000)  returns 0x00 (0000ms, 12992ms total)
T25FC 4640:908 JLINK_WriteReg(MSP, 0x20001000)  returns 0x00 (0000ms, 12992ms total)
T25FC 4640:908 JLINK_WriteReg(PSP, 0x20001000)  returns 0x00 (0000ms, 12992ms total)
T25FC 4640:908 JLINK_WriteReg(CFBP, 0x00000000)  returns 0x00 (0000ms, 12992ms total)
T25FC 4640:908 JLINK_SetBPEx(Addr = 0x20000000, Type = 0xFFFFFFF2)  returns 0x00000002 (0000ms, 12992ms total)
T25FC 4640:908 JLINK_Go() -- CPU_ReadMem(4 bytes @ 0xE0001000) (0003ms, 12995ms total)
T25FC 4640:911 JLINK_IsHalted()  returns FALSE (0001ms, 12996ms total)
T25FC 4640:971 JLINK_IsHalted()  returns FALSE (0001ms, 12996ms total)
T25FC 4640:973 JLINK_IsHalted()  returns FALSE (0001ms, 12996ms total)
T25FC 4640:975 JLINK_IsHalted()  returns FALSE (0000ms, 12995ms total)
T25FC 4640:976 JLINK_IsHalted()  returns FALSE (0000ms, 12995ms total)
T25FC 4640:977 JLINK_IsHalted()  returns FALSE (0000ms, 12995ms total)
T25FC 4640:978 JLINK_IsHalted()  returns FALSE (0000ms, 12995ms total)
T25FC 4640:979 JLINK_IsHalted()  returns FALSE (0000ms, 12995ms total)
T25FC 4640:980 JLINK_IsHalted()  returns FALSE (0000ms, 12995ms total)
T25FC 4640:981 JLINK_IsHalted()  returns FALSE (0000ms, 12995ms total)
T25FC 4640:982 JLINK_IsHalted()  returns FALSE (0000ms, 12995ms total)
T25FC 4640:983 JLINK_IsHalted()  returns FALSE (0000ms, 12995ms total)
T25FC 4640:984 JLINK_IsHalted()  returns FALSE (0000ms, 12995ms total)
T25FC 4640:985 JLINK_IsHalted()  returns FALSE (0000ms, 12995ms total)
T25FC 4640:986 JLINK_IsHalted()  returns FALSE (0000ms, 12995ms total)
T25FC 4640:987 JLINK_IsHalted()  returns FALSE (0000ms, 12995ms total)
T25FC 4640:988 JLINK_IsHalted()  returns FALSE (0000ms, 12995ms total)
T25FC 4640:989 JLINK_IsHalted()  returns FALSE (0000ms, 12995ms total)
T25FC 4640:990 JLINK_IsHalted()  returns FALSE (0000ms, 12995ms total)
T25FC 4640:991 JLINK_IsHalted()  returns FALSE (0000ms, 12995ms total)
T25FC 4640:992 JLINK_IsHalted()  returns FALSE (0000ms, 12995ms total)
T25FC 4640:993 JLINK_IsHalted()  returns FALSE (0000ms, 12995ms total)
T25FC 4640:994 JLINK_IsHalted()  returns FALSE (0000ms, 12995ms total)
T25FC 4640:995 JLINK_IsHalted()  returns FALSE (0000ms, 12995ms total)
T25FC 4640:996 JLINK_IsHalted()  returns FALSE (0000ms, 12995ms total)
T25FC 4640:997 JLINK_IsHalted()  returns FALSE (0000ms, 12995ms total)
T25FC 4640:998 JLINK_IsHalted()  returns FALSE (0000ms, 12995ms total)
T25FC 4640:999 JLINK_IsHalted()  returns FALSE (0001ms, 12996ms total)
T25FC 4641:001 JLINK_IsHalted()  returns FALSE (0001ms, 12996ms total)
T25FC 4641:003 JLINK_IsHalted()  returns FALSE (0001ms, 12996ms total)
T25FC 4641:005 JLINK_IsHalted()  returns FALSE (0001ms, 12996ms total)
T25FC 4641:007 JLINK_IsHalted()  returns FALSE (0001ms, 12996ms total)
T25FC 4641:013 JLINK_IsHalted()  returns FALSE (0001ms, 12996ms total)
T25FC 4641:015 JLINK_IsHalted()  returns FALSE (0000ms, 12996ms total)
T25FC 4641:016 JLINK_IsHalted()  returns FALSE (0000ms, 12996ms total)
T25FC 4641:017 JLINK_IsHalted()  returns FALSE (0000ms, 12996ms total)
T25FC 4641:018 JLINK_IsHalted()  returns FALSE (0000ms, 12996ms total)
T25FC 4641:019 JLINK_IsHalted()  returns FALSE (0000ms, 12996ms total)
T25FC 4641:020 JLINK_IsHalted()  returns FALSE (0000ms, 12996ms total)
T25FC 4641:021 JLINK_IsHalted()  returns FALSE (0000ms, 12996ms total)
T25FC 4641:022 JLINK_IsHalted()  returns FALSE (0000ms, 12996ms total)
T25FC 4641:023 JLINK_IsHalted()  returns FALSE (0000ms, 12996ms total)
T25FC 4641:024 JLINK_IsHalted()  returns FALSE (0000ms, 12996ms total)
T25FC 4641:025 JLINK_IsHalted()  returns FALSE (0000ms, 12996ms total)
T25FC 4641:026 JLINK_IsHalted() -- CPU_ReadMem(2 bytes @ 0x20000000)  returns TRUE (0003ms, 12999ms total)
T25FC 4641:029 JLINK_ReadReg(R15 (PC))  returns 0x20000000 (0000ms, 12996ms total)
T25FC 4641:029 JLINK_ClrBPEx(BPHandle = 0x00000002)  returns 0x00 (0000ms, 12996ms total)
T25FC 4641:029 JLINK_ReadReg(R0)  returns 0x00000000 (0000ms, 12996ms total)
T25FC 4641:030 JLINK_WriteReg(R0, 0x00000001)  returns 0x00 (0000ms, 12996ms total)
T25FC 4641:030 JLINK_WriteReg(R1, 0x00020000)  returns 0x00 (0000ms, 12996ms total)
T25FC 4641:030 JLINK_WriteReg(R2, 0x000000FF)  returns 0x00 (0000ms, 12996ms total)
T25FC 4641:030 JLINK_WriteReg(R3, 0x00000000)  returns 0x00 (0000ms, 12996ms total)
T25FC 4641:030 JLINK_WriteReg(R4, 0x00000000)  returns 0x00 (0000ms, 12996ms total)
T25FC 4641:030 JLINK_WriteReg(R5, 0x00000000)  returns 0x00 (0000ms, 12996ms total)
T25FC 4641:030 JLINK_WriteReg(R6, 0x00000000)  returns 0x00 (0000ms, 12996ms total)
T25FC 4641:030 JLINK_WriteReg(R7, 0x00000000)  returns 0x00 (0000ms, 12996ms total)
T25FC 4641:030 JLINK_WriteReg(R8, 0x00000000)  returns 0x00 (0000ms, 12996ms total)
T25FC 4641:030 JLINK_WriteReg(R9, 0x2000017C)  returns 0x00 (0000ms, 12996ms total)
T25FC 4641:030 JLINK_WriteReg(R10, 0x00000000)  returns 0x00 (0000ms, 12996ms total)
T25FC 4641:030 JLINK_WriteReg(R11, 0x00000000)  returns 0x00 (0000ms, 12996ms total)
T25FC 4641:030 JLINK_WriteReg(R12, 0x00000000)  returns 0x00 (0000ms, 12996ms total)
T25FC 4641:030 JLINK_WriteReg(R13 (SP), 0x20001000)  returns 0x00 (0000ms, 12996ms total)
T25FC 4641:030 JLINK_WriteReg(R14, 0x20000001)  returns 0x00 (0000ms, 12996ms total)
T25FC 4641:030 JLINK_WriteReg(R15 (PC), 0x20000082)  returns 0x00 (0000ms, 12996ms total)
T25FC 4641:030 JLINK_WriteReg(XPSR, 0x01000000)  returns 0x00 (0000ms, 12996ms total)
T25FC 4641:030 JLINK_WriteReg(MSP, 0x20001000)  returns 0x00 (0000ms, 12996ms total)
T25FC 4641:030 JLINK_WriteReg(PSP, 0x20001000)  returns 0x00 (0000ms, 12996ms total)
T25FC 4641:030 JLINK_WriteReg(CFBP, 0x00000000)  returns 0x00 (0000ms, 12996ms total)
T25FC 4641:030 JLINK_SetBPEx(Addr = 0x20000000, Type = 0xFFFFFFF2)  returns 0x00000003 (0000ms, 12996ms total)
T25FC 4641:030 JLINK_Go() -- CPU_ReadMem(4 bytes @ 0xE0001000) (0003ms, 12999ms total)
T25FC 4641:033 JLINK_IsHalted() -- CPU_ReadMem(2 bytes @ 0x20000000)  returns TRUE (0004ms, 13003ms total)
T25FC 4641:037 JLINK_ReadReg(R15 (PC))  returns 0x20000000 (0000ms, 12999ms total)
T25FC 4641:037 JLINK_ClrBPEx(BPHandle = 0x00000003)  returns 0x00 (0000ms, 12999ms total)
T25FC 4641:037 JLINK_ReadReg(R0)  returns 0x00000000 (0000ms, 12999ms total)
T25FC 4641:123 JLINK_WriteMem(0x20000000, 0x0180 Bytes, ...) - Data: 00 BE 0A E0 0D 78 2D 06 68 40 08 24 40 00 00 D3 ... -- CPU_WriteMem(384 bytes @ 0x20000000)  returns 0x180 (0002ms, 13001ms total)
T25FC 4641:125 JLINK_WriteReg(R0, 0x08000000)  returns 0x00 (0000ms, 13001ms total)
T25FC 4641:125 JLINK_WriteReg(R1, 0x017D7840)  returns 0x00 (0000ms, 13001ms total)
T25FC 4641:125 JLINK_WriteReg(R2, 0x00000002)  returns 0x00 (0000ms, 13001ms total)
T25FC 4641:125 JLINK_WriteReg(R3, 0x00000000)  returns 0x00 (0000ms, 13001ms total)
T25FC 4641:125 JLINK_WriteReg(R4, 0x00000000)  returns 0x00 (0000ms, 13001ms total)
T25FC 4641:125 JLINK_WriteReg(R5, 0x00000000)  returns 0x00 (0000ms, 13001ms total)
T25FC 4641:125 JLINK_WriteReg(R6, 0x00000000)  returns 0x00 (0000ms, 13001ms total)
T25FC 4641:125 JLINK_WriteReg(R7, 0x00000000)  returns 0x00 (0000ms, 13001ms total)
T25FC 4641:125 JLINK_WriteReg(R8, 0x00000000)  returns 0x00 (0000ms, 13001ms total)
T25FC 4641:125 JLINK_WriteReg(R9, 0x2000017C)  returns 0x00 (0000ms, 13001ms total)
T25FC 4641:125 JLINK_WriteReg(R10, 0x00000000)  returns 0x00 (0000ms, 13001ms total)
T25FC 4641:125 JLINK_WriteReg(R11, 0x00000000)  returns 0x00 (0000ms, 13001ms total)
T25FC 4641:125 JLINK_WriteReg(R12, 0x00000000)  returns 0x00 (0000ms, 13001ms total)
T25FC 4641:125 JLINK_WriteReg(R13 (SP), 0x20001000)  returns 0x00 (0000ms, 13001ms total)
T25FC 4641:125 JLINK_WriteReg(R14, 0x20000001)  returns 0x00 (0000ms, 13001ms total)
T25FC 4641:125 JLINK_WriteReg(R15 (PC), 0x20000054)  returns 0x00 (0000ms, 13001ms total)
T25FC 4641:125 JLINK_WriteReg(XPSR, 0x01000000)  returns 0x00 (0000ms, 13001ms total)
T25FC 4641:125 JLINK_WriteReg(MSP, 0x20001000)  returns 0x00 (0000ms, 13001ms total)
T25FC 4641:125 JLINK_WriteReg(PSP, 0x20001000)  returns 0x00 (0000ms, 13001ms total)
T25FC 4641:125 JLINK_WriteReg(CFBP, 0x00000000)  returns 0x00 (0000ms, 13001ms total)
T25FC 4641:125 JLINK_SetBPEx(Addr = 0x20000000, Type = 0xFFFFFFF2) -- CPU_ReadMem(2 bytes @ 0x20000000)  returns 0x00000004 (0001ms, 13002ms total)
T25FC 4641:126 JLINK_Go() -- CPU_WriteMem(2 bytes @ 0x20000000) -- CPU_ReadMem(4 bytes @ 0xE0001000) (0004ms, 13006ms total)
T25FC 4641:130 JLINK_IsHalted() -- CPU_ReadMem(2 bytes @ 0x20000000)  returns TRUE (0004ms, 13010ms total)
T25FC 4641:134 JLINK_ReadReg(R15 (PC))  returns 0x20000000 (0000ms, 13006ms total)
T25FC 4641:134 JLINK_ClrBPEx(BPHandle = 0x00000004)  returns 0x00 (0000ms, 13006ms total)
T25FC 4641:134 JLINK_ReadReg(R0)  returns 0x00000000 (0000ms, 13006ms total)
T25FC 4641:135 JLINK_WriteMem(0x20000180, 0x0280 Bytes, ...) - Data: 08 69 00 20 C1 01 04 08 D5 8A 04 08 E9 67 04 08 ... -- CPU_WriteMem(640 bytes @ 0x20000180)  returns 0x280 (0003ms, 13009ms total)
T25FC 4641:138 JLINK_WriteMem(0x20000400, 0x0180 Bytes, ...) - Data: 0A 00 C3 F3 0A 51 02 90 40 1A 01 90 40 28 6B DA ... -- CPU_WriteMem(384 bytes @ 0x20000400)  returns 0x180 (0002ms, 13011ms total)
T25FC 4641:140 JLINK_WriteReg(R0, 0x08040000)  returns 0x00 (0000ms, 13011ms total)
T25FC 4641:140 JLINK_WriteReg(R1, 0x00000400)  returns 0x00 (0000ms, 13011ms total)
T25FC 4641:140 JLINK_WriteReg(R2, 0x20000180)  returns 0x00 (0000ms, 13011ms total)
T25FC 4641:140 JLINK_WriteReg(R3, 0x00000000)  returns 0x00 (0000ms, 13011ms total)
T25FC 4641:140 JLINK_WriteReg(R4, 0x00000000)  returns 0x00 (0000ms, 13011ms total)
T25FC 4641:140 JLINK_WriteReg(R5, 0x00000000)  returns 0x00 (0000ms, 13011ms total)
T25FC 4641:140 JLINK_WriteReg(R6, 0x00000000)  returns 0x00 (0000ms, 13011ms total)
T25FC 4641:140 JLINK_WriteReg(R7, 0x00000000)  returns 0x00 (0000ms, 13011ms total)
T25FC 4641:140 JLINK_WriteReg(R8, 0x00000000)  returns 0x00 (0000ms, 13011ms total)
T25FC 4641:140 JLINK_WriteReg(R9, 0x2000017C)  returns 0x00 (0000ms, 13011ms total)
T25FC 4641:140 JLINK_WriteReg(R10, 0x00000000)  returns 0x00 (0000ms, 13011ms total)
T25FC 4641:140 JLINK_WriteReg(R11, 0x00000000)  returns 0x00 (0000ms, 13011ms total)
T25FC 4641:140 JLINK_WriteReg(R12, 0x00000000)  returns 0x00 (0000ms, 13011ms total)
T25FC 4641:140 JLINK_WriteReg(R13 (SP), 0x20001000)  returns 0x00 (0000ms, 13011ms total)
T25FC 4641:140 JLINK_WriteReg(R14, 0x20000001)  returns 0x00 (0000ms, 13011ms total)
T25FC 4641:140 JLINK_WriteReg(R15 (PC), 0x20000108)  returns 0x00 (0000ms, 13011ms total)
T25FC 4641:140 JLINK_WriteReg(XPSR, 0x01000000)  returns 0x00 (0000ms, 13011ms total)
T25FC 4641:140 JLINK_WriteReg(MSP, 0x20001000)  returns 0x00 (0000ms, 13011ms total)
T25FC 4641:140 JLINK_WriteReg(PSP, 0x20001000)  returns 0x00 (0000ms, 13011ms total)
T25FC 4641:140 JLINK_WriteReg(CFBP, 0x00000000)  returns 0x00 (0000ms, 13011ms total)
T25FC 4641:140 JLINK_SetBPEx(Addr = 0x20000000, Type = 0xFFFFFFF2)  returns 0x00000005 (0000ms, 13011ms total)
T25FC 4641:140 JLINK_Go() -- CPU_ReadMem(4 bytes @ 0xE0001000) (0003ms, 13014ms total)
T25FC 4641:143 JLINK_IsHalted()  returns FALSE (0001ms, 13015ms total)
T25FC 4641:153 JLINK_IsHalted() -- CPU_ReadMem(2 bytes @ 0x20000000)  returns TRUE (0004ms, 13018ms total)
T25FC 4641:157 JLINK_ReadReg(R15 (PC))  returns 0x20000000 (0000ms, 13014ms total)
T25FC 4641:157 JLINK_ClrBPEx(BPHandle = 0x00000005)  returns 0x00 (0000ms, 13014ms total)
T25FC 4641:157 JLINK_ReadReg(R0)  returns 0x00000000 (0000ms, 13014ms total)
T25FC 4641:158 JLINK_WriteMem(0x20000180, 0x0280 Bytes, ...) - Data: 4F EA 93 2C 04 FB 0C 54 27 05 02 9D 4F EA 06 58 ... -- CPU_WriteMem(640 bytes @ 0x20000180)  returns 0x280 (0002ms, 13016ms total)
T25FC 4641:160 JLINK_WriteMem(0x20000400, 0x0180 Bytes, ...) - Data: 21 FA 02 F3 D0 40 C2 F1 20 02 91 40 08 43 19 46 ... -- CPU_WriteMem(384 bytes @ 0x20000400)  returns 0x180 (0002ms, 13018ms total)
T25FC 4641:162 JLINK_WriteReg(R0, 0x08040400)  returns 0x00 (0000ms, 13018ms total)
T25FC 4641:162 JLINK_WriteReg(R1, 0x00000400)  returns 0x00 (0000ms, 13018ms total)
T25FC 4641:162 JLINK_WriteReg(R2, 0x20000180)  returns 0x00 (0000ms, 13018ms total)
T25FC 4641:162 JLINK_WriteReg(R3, 0x00000000)  returns 0x00 (0000ms, 13018ms total)
T25FC 4641:162 JLINK_WriteReg(R4, 0x00000000)  returns 0x00 (0001ms, 13019ms total)
T25FC 4641:163 JLINK_WriteReg(R5, 0x00000000)  returns 0x00 (0000ms, 13019ms total)
T25FC 4641:163 JLINK_WriteReg(R6, 0x00000000)  returns 0x00 (0000ms, 13019ms total)
T25FC 4641:163 JLINK_WriteReg(R7, 0x00000000)  returns 0x00 (0000ms, 13019ms total)
T25FC 4641:163 JLINK_WriteReg(R8, 0x00000000)  returns 0x00 (0000ms, 13019ms total)
T25FC 4641:163 JLINK_WriteReg(R9, 0x2000017C)  returns 0x00 (0000ms, 13019ms total)
T25FC 4641:163 JLINK_WriteReg(R10, 0x00000000)  returns 0x00 (0000ms, 13019ms total)
T25FC 4641:163 JLINK_WriteReg(R11, 0x00000000)  returns 0x00 (0000ms, 13019ms total)
T25FC 4641:163 JLINK_WriteReg(R12, 0x00000000)  returns 0x00 (0000ms, 13019ms total)
T25FC 4641:163 JLINK_WriteReg(R13 (SP), 0x20001000)  returns 0x00 (0000ms, 13019ms total)
T25FC 4641:163 JLINK_WriteReg(R14, 0x20000001)  returns 0x00 (0000ms, 13019ms total)
T25FC 4641:163 JLINK_WriteReg(R15 (PC), 0x20000108)  returns 0x00 (0000ms, 13019ms total)
T25FC 4641:163 JLINK_WriteReg(XPSR, 0x01000000)  returns 0x00 (0000ms, 13019ms total)
T25FC 4641:163 JLINK_WriteReg(MSP, 0x20001000)  returns 0x00 (0000ms, 13019ms total)
T25FC 4641:163 JLINK_WriteReg(PSP, 0x20001000)  returns 0x00 (0000ms, 13019ms total)
T25FC 4641:163 JLINK_WriteReg(CFBP, 0x00000000)  returns 0x00 (0000ms, 13019ms total)
T25FC 4641:163 JLINK_SetBPEx(Addr = 0x20000000, Type = 0xFFFFFFF2)  returns 0x00000006 (0000ms, 13019ms total)
T25FC 4641:163 JLINK_Go() -- CPU_ReadMem(4 bytes @ 0xE0001000) (0002ms, 13021ms total)
T25FC 4641:165 JLINK_IsHalted()  returns FALSE (0001ms, 13022ms total)
T25FC 4641:167 JLINK_IsHalted()  returns FALSE (0000ms, 13021ms total)
T25FC 4641:168 JLINK_IsHalted()  returns FALSE (0000ms, 13021ms total)
T25FC 4641:174 JLINK_IsHalted() -- CPU_ReadMem(2 bytes @ 0x20000000)  returns TRUE (0004ms, 13025ms total)
T25FC 4641:178 JLINK_ReadReg(R15 (PC))  returns 0x20000000 (0000ms, 13021ms total)
T25FC 4641:178 JLINK_ClrBPEx(BPHandle = 0x00000006)  returns 0x00 (0000ms, 13021ms total)
T25FC 4641:178 JLINK_ReadReg(R0)  returns 0x00000000 (0000ms, 13021ms total)
T25FC 4641:178 JLINK_WriteMem(0x20000180, 0x0280 Bytes, ...) - Data: 62 0A 3E 46 80 46 02 46 00 20 4F F4 80 11 FF F7 ... -- CPU_WriteMem(640 bytes @ 0x20000180)  returns 0x280 (0003ms, 13024ms total)
T25FC 4641:181 JLINK_WriteMem(0x20000400, 0x0180 Bytes, ...) - Data: 50 20 0D F0 E1 FB 00 23 1D A2 BE 21 A0 20 0D F0 ... -- CPU_WriteMem(384 bytes @ 0x20000400)  returns 0x180 (0002ms, 13026ms total)
T25FC 4641:183 JLINK_WriteReg(R0, 0x08040800)  returns 0x00 (0000ms, 13026ms total)
T25FC 4641:183 JLINK_WriteReg(R1, 0x00000400)  returns 0x00 (0000ms, 13026ms total)
T25FC 4641:183 JLINK_WriteReg(R2, 0x20000180)  returns 0x00 (0000ms, 13026ms total)
T25FC 4641:183 JLINK_WriteReg(R3, 0x00000000)  returns 0x00 (0000ms, 13026ms total)
T25FC 4641:183 JLINK_WriteReg(R4, 0x00000000)  returns 0x00 (0000ms, 13026ms total)
T25FC 4641:183 JLINK_WriteReg(R5, 0x00000000)  returns 0x00 (0000ms, 13026ms total)
T25FC 4641:183 JLINK_WriteReg(R6, 0x00000000)  returns 0x00 (0000ms, 13026ms total)
T25FC 4641:183 JLINK_WriteReg(R7, 0x00000000)  returns 0x00 (0000ms, 13026ms total)
T25FC 4641:183 JLINK_WriteReg(R8, 0x00000000)  returns 0x00 (0000ms, 13026ms total)
T25FC 4641:183 JLINK_WriteReg(R9, 0x2000017C)  returns 0x00 (0000ms, 13026ms total)
T25FC 4641:183 JLINK_WriteReg(R10, 0x00000000)  returns 0x00 (0000ms, 13026ms total)
T25FC 4641:183 JLINK_WriteReg(R11, 0x00000000)  returns 0x00 (0000ms, 13026ms total)
T25FC 4641:183 JLINK_WriteReg(R12, 0x00000000)  returns 0x00 (0000ms, 13026ms total)
T25FC 4641:183 JLINK_WriteReg(R13 (SP), 0x20001000)  returns 0x00 (0000ms, 13026ms total)
T25FC 4641:183 JLINK_WriteReg(R14, 0x20000001)  returns 0x00 (0001ms, 13027ms total)
T25FC 4641:184 JLINK_WriteReg(R15 (PC), 0x20000108)  returns 0x00 (0000ms, 13027ms total)
T25FC 4641:184 JLINK_WriteReg(XPSR, 0x01000000)  returns 0x00 (0000ms, 13027ms total)
T25FC 4641:184 JLINK_WriteReg(MSP, 0x20001000)  returns 0x00 (0000ms, 13027ms total)
T25FC 4641:184 JLINK_WriteReg(PSP, 0x20001000)  returns 0x00 (0000ms, 13027ms total)
T25FC 4641:184 JLINK_WriteReg(CFBP, 0x00000000)  returns 0x00 (0000ms, 13027ms total)
T25FC 4641:184 JLINK_SetBPEx(Addr = 0x20000000, Type = 0xFFFFFFF2)  returns 0x00000007 (0000ms, 13027ms total)
T25FC 4641:184 JLINK_Go() -- CPU_ReadMem(4 bytes @ 0xE0001000) (0002ms, 13029ms total)
T25FC 4641:186 JLINK_IsHalted()  returns FALSE (0001ms, 13030ms total)
T25FC 4641:188 JLINK_IsHalted()  returns FALSE (0000ms, 13029ms total)
T25FC 4641:189 JLINK_IsHalted()  returns FALSE (0000ms, 13029ms total)
T25FC 4641:190 JLINK_IsHalted() -- CPU_ReadMem(2 bytes @ 0x20000000)  returns TRUE (0003ms, 13032ms total)
T25FC 4641:193 JLINK_ReadReg(R15 (PC))  returns 0x20000000 (0000ms, 13029ms total)
T25FC 4641:193 JLINK_ClrBPEx(BPHandle = 0x00000007)  returns 0x00 (0000ms, 13029ms total)
T25FC 4641:193 JLINK_ReadReg(R0)  returns 0x00000000 (0000ms, 13029ms total)
T25FC 4641:194 JLINK_WriteMem(0x20000180, 0x0280 Bytes, ...) - Data: 2F FE C2 E0 9A 48 90 F8 58 00 70 B9 76 20 AD F8 ... -- CPU_WriteMem(640 bytes @ 0x20000180)  returns 0x280 (0003ms, 13032ms total)
T25FC 4641:197 JLINK_WriteMem(0x20000400, 0x0180 Bytes, ...) - Data: AA 00 00 20 10 B5 4F F4 80 61 02 48 05 F0 84 FC ... -- CPU_WriteMem(384 bytes @ 0x20000400)  returns 0x180 (0001ms, 13033ms total)
T25FC 4641:199 JLINK_WriteReg(R0, 0x08040C00)  returns 0x00 (0000ms, 13034ms total)
T25FC 4641:199 JLINK_WriteReg(R1, 0x00000400)  returns 0x00 (0000ms, 13034ms total)
T25FC 4641:199 JLINK_WriteReg(R2, 0x20000180)  returns 0x00 (0000ms, 13034ms total)
T25FC 4641:199 JLINK_WriteReg(R3, 0x00000000)  returns 0x00 (0000ms, 13034ms total)
T25FC 4641:199 JLINK_WriteReg(R4, 0x00000000)  returns 0x00 (0000ms, 13034ms total)
T25FC 4641:199 JLINK_WriteReg(R5, 0x00000000)  returns 0x00 (0000ms, 13034ms total)
T25FC 4641:199 JLINK_WriteReg(R6, 0x00000000)  returns 0x00 (0000ms, 13034ms total)
T25FC 4641:199 JLINK_WriteReg(R7, 0x00000000)  returns 0x00 (0000ms, 13034ms total)
T25FC 4641:199 JLINK_WriteReg(R8, 0x00000000)  returns 0x00 (0000ms, 13034ms total)
T25FC 4641:199 JLINK_WriteReg(R9, 0x2000017C)  returns 0x00 (0000ms, 13034ms total)
T25FC 4641:199 JLINK_WriteReg(R10, 0x00000000)  returns 0x00 (0000ms, 13034ms total)
T25FC 4641:199 JLINK_WriteReg(R11, 0x00000000)  returns 0x00 (0000ms, 13034ms total)
T25FC 4641:199 JLINK_WriteReg(R12, 0x00000000)  returns 0x00 (0000ms, 13034ms total)
T25FC 4641:199 JLINK_WriteReg(R13 (SP), 0x20001000)  returns 0x00 (0000ms, 13034ms total)
T25FC 4641:199 JLINK_WriteReg(R14, 0x20000001)  returns 0x00 (0000ms, 13034ms total)
T25FC 4641:199 JLINK_WriteReg(R15 (PC), 0x20000108)  returns 0x00 (0000ms, 13034ms total)
T25FC 4641:199 JLINK_WriteReg(XPSR, 0x01000000)  returns 0x00 (0000ms, 13034ms total)
T25FC 4641:199 JLINK_WriteReg(MSP, 0x20001000)  returns 0x00 (0000ms, 13034ms total)
T25FC 4641:199 JLINK_WriteReg(PSP, 0x20001000)  returns 0x00 (0000ms, 13034ms total)
T25FC 4641:199 JLINK_WriteReg(CFBP, 0x00000000)  returns 0x00 (0000ms, 13034ms total)
T25FC 4641:199 JLINK_SetBPEx(Addr = 0x20000000, Type = 0xFFFFFFF2)  returns 0x00000008 (0000ms, 13034ms total)
T25FC 4641:199 JLINK_Go() -- CPU_ReadMem(4 bytes @ 0xE0001000) (0002ms, 13036ms total)
T25FC 4641:202 JLINK_IsHalted()  returns FALSE (0000ms, 13036ms total)
T25FC 4641:204 JLINK_IsHalted()  returns FALSE (0001ms, 13037ms total)
T25FC 4641:206 JLINK_IsHalted() -- CPU_ReadMem(2 bytes @ 0x20000000)  returns TRUE (0004ms, 13040ms total)
T25FC 4641:210 JLINK_ReadReg(R15 (PC))  returns 0x20000000 (0000ms, 13036ms total)
T25FC 4641:210 JLINK_ClrBPEx(BPHandle = 0x00000008)  returns 0x00 (0000ms, 13036ms total)
T25FC 4641:210 JLINK_ReadReg(R0)  returns 0x00000000 (0000ms, 13036ms total)
T25FC 4641:210 JLINK_WriteMem(0x20000180, 0x0280 Bytes, ...) - Data: 05 7D 2B 06 21 E0 45 68 01 2D 05 D1 C5 68 29 02 ... -- CPU_WriteMem(640 bytes @ 0x20000180)  returns 0x280 (0003ms, 13039ms total)
T25FC 4641:213 JLINK_WriteMem(0x20000400, 0x0180 Bytes, ...) - Data: 08 32 46 21 AA 20 0C F0 DF FF 04 2C 01 D1 01 20 ... -- CPU_WriteMem(384 bytes @ 0x20000400)  returns 0x180 (0002ms, 13041ms total)
T25FC 4641:215 JLINK_WriteReg(R0, 0x08041000)  returns 0x00 (0000ms, 13041ms total)
T25FC 4641:215 JLINK_WriteReg(R1, 0x00000400)  returns 0x00 (0000ms, 13041ms total)
T25FC 4641:215 JLINK_WriteReg(R2, 0x20000180)  returns 0x00 (0000ms, 13041ms total)
T25FC 4641:215 JLINK_WriteReg(R3, 0x00000000)  returns 0x00 (0000ms, 13041ms total)
T25FC 4641:215 JLINK_WriteReg(R4, 0x00000000)  returns 0x00 (0000ms, 13041ms total)
T25FC 4641:215 JLINK_WriteReg(R5, 0x00000000)  returns 0x00 (0000ms, 13041ms total)
T25FC 4641:215 JLINK_WriteReg(R6, 0x00000000)  returns 0x00 (0000ms, 13041ms total)
T25FC 4641:215 JLINK_WriteReg(R7, 0x00000000)  returns 0x00 (0000ms, 13041ms total)
T25FC 4641:215 JLINK_WriteReg(R8, 0x00000000)  returns 0x00 (0000ms, 13041ms total)
T25FC 4641:215 JLINK_WriteReg(R9, 0x2000017C)  returns 0x00 (0001ms, 13042ms total)
T25FC 4641:216 JLINK_WriteReg(R10, 0x00000000)  returns 0x00 (0000ms, 13042ms total)
T25FC 4641:216 JLINK_WriteReg(R11, 0x00000000)  returns 0x00 (0000ms, 13042ms total)
T25FC 4641:216 JLINK_WriteReg(R12, 0x00000000)  returns 0x00 (0000ms, 13042ms total)
T25FC 4641:216 JLINK_WriteReg(R13 (SP), 0x20001000)  returns 0x00 (0000ms, 13042ms total)
T25FC 4641:216 JLINK_WriteReg(R14, 0x20000001)  returns 0x00 (0000ms, 13042ms total)
T25FC 4641:216 JLINK_WriteReg(R15 (PC), 0x20000108)  returns 0x00 (0000ms, 13042ms total)
T25FC 4641:216 JLINK_WriteReg(XPSR, 0x01000000)  returns 0x00 (0000ms, 13042ms total)
T25FC 4641:216 JLINK_WriteReg(MSP, 0x20001000)  returns 0x00 (0000ms, 13042ms total)
T25FC 4641:216 JLINK_WriteReg(PSP, 0x20001000)  returns 0x00 (0000ms, 13042ms total)
T25FC 4641:216 JLINK_WriteReg(CFBP, 0x00000000)  returns 0x00 (0000ms, 13042ms total)
T25FC 4641:216 JLINK_SetBPEx(Addr = 0x20000000, Type = 0xFFFFFFF2)  returns 0x00000009 (0000ms, 13042ms total)
T25FC 4641:216 JLINK_Go() -- CPU_ReadMem(4 bytes @ 0xE0001000) (0003ms, 13045ms total)
T25FC 4641:219 JLINK_IsHalted()  returns FALSE (0001ms, 13046ms total)
T25FC 4641:231 JLINK_IsHalted() -- CPU_ReadMem(2 bytes @ 0x20000000)  returns TRUE (0004ms, 13049ms total)
T25FC 4641:235 JLINK_ReadReg(R15 (PC))  returns 0x20000000 (0000ms, 13045ms total)
T25FC 4641:235 JLINK_ClrBPEx(BPHandle = 0x00000009)  returns 0x00 (0000ms, 13045ms total)
T25FC 4641:235 JLINK_ReadReg(R0)  returns 0x00000000 (0000ms, 13045ms total)
T25FC 4641:236 JLINK_WriteMem(0x20000180, 0x0280 Bytes, ...) - Data: 03 E0 4F F0 50 10 5F 49 48 60 5F 48 90 F8 D5 00 ... -- CPU_WriteMem(640 bytes @ 0x20000180)  returns 0x280 (0002ms, 13047ms total)
T25FC 4641:239 JLINK_WriteMem(0x20000400, 0x0180 Bytes, ...) - Data: FA 4C 00 E0 FA 4C 12 23 68 22 1A 21 58 20 05 F0 ... -- CPU_WriteMem(384 bytes @ 0x20000400)  returns 0x180 (0002ms, 13049ms total)
T25FC 4641:241 JLINK_WriteReg(R0, 0x08041400)  returns 0x00 (0000ms, 13049ms total)
T25FC 4641:241 JLINK_WriteReg(R1, 0x00000400)  returns 0x00 (0000ms, 13049ms total)
T25FC 4641:241 JLINK_WriteReg(R2, 0x20000180)  returns 0x00 (0000ms, 13049ms total)
T25FC 4641:241 JLINK_WriteReg(R3, 0x00000000)  returns 0x00 (0000ms, 13049ms total)
T25FC 4641:241 JLINK_WriteReg(R4, 0x00000000)  returns 0x00 (0000ms, 13049ms total)
T25FC 4641:241 JLINK_WriteReg(R5, 0x00000000)  returns 0x00 (0000ms, 13049ms total)
T25FC 4641:241 JLINK_WriteReg(R6, 0x00000000)  returns 0x00 (0000ms, 13049ms total)
T25FC 4641:241 JLINK_WriteReg(R7, 0x00000000)  returns 0x00 (0000ms, 13049ms total)
T25FC 4641:241 JLINK_WriteReg(R8, 0x00000000)  returns 0x00 (0000ms, 13049ms total)
T25FC 4641:241 JLINK_WriteReg(R9, 0x2000017C)  returns 0x00 (0000ms, 13049ms total)
T25FC 4641:241 JLINK_WriteReg(R10, 0x00000000)  returns 0x00 (0000ms, 13049ms total)
T25FC 4641:241 JLINK_WriteReg(R11, 0x00000000)  returns 0x00 (0000ms, 13049ms total)
T25FC 4641:241 JLINK_WriteReg(R12, 0x00000000)  returns 0x00 (0000ms, 13049ms total)
T25FC 4641:241 JLINK_WriteReg(R13 (SP), 0x20001000)  returns 0x00 (0000ms, 13049ms total)
T25FC 4641:241 JLINK_WriteReg(R14, 0x20000001)  returns 0x00 (0000ms, 13049ms total)
T25FC 4641:241 JLINK_WriteReg(R15 (PC), 0x20000108)  returns 0x00 (0000ms, 13049ms total)
T25FC 4641:241 JLINK_WriteReg(XPSR, 0x01000000)  returns 0x00 (0000ms, 13049ms total)
T25FC 4641:241 JLINK_WriteReg(MSP, 0x20001000)  returns 0x00 (0000ms, 13049ms total)
T25FC 4641:241 JLINK_WriteReg(PSP, 0x20001000)  returns 0x00 (0000ms, 13049ms total)
T25FC 4641:241 JLINK_WriteReg(CFBP, 0x00000000)  returns 0x00 (0000ms, 13049ms total)
T25FC 4641:241 JLINK_SetBPEx(Addr = 0x20000000, Type = 0xFFFFFFF2)  returns 0x0000000A (0000ms, 13049ms total)
T25FC 4641:241 JLINK_Go() -- CPU_ReadMem(4 bytes @ 0xE0001000) (0003ms, 13052ms total)
T25FC 4641:244 JLINK_IsHalted()  returns FALSE (0001ms, 13053ms total)
T25FC 4641:246 JLINK_IsHalted()  returns FALSE (0001ms, 13053ms total)
T25FC 4641:248 JLINK_IsHalted() -- CPU_ReadMem(2 bytes @ 0x20000000)  returns TRUE (0004ms, 13056ms total)
T25FC 4641:252 JLINK_ReadReg(R15 (PC))  returns 0x20000000 (0000ms, 13052ms total)
T25FC 4641:252 JLINK_ClrBPEx(BPHandle = 0x0000000A)  returns 0x00 (0000ms, 13052ms total)
T25FC 4641:252 JLINK_ReadReg(R0)  returns 0x00000000 (0000ms, 13052ms total)
T25FC 4641:252 JLINK_WriteMem(0x20000180, 0x0280 Bytes, ...) - Data: 20 B1 4F F4 7F 00 97 49 48 60 03 E0 4F F0 50 10 ... -- CPU_WriteMem(640 bytes @ 0x20000180)  returns 0x280 (0003ms, 13055ms total)
T25FC 4641:255 JLINK_WriteMem(0x20000400, 0x0180 Bytes, ...) - Data: 20 21 00 20 6F 07 05 08 20 56 2F 6D 73 00 00 00 ... -- CPU_WriteMem(384 bytes @ 0x20000400)  returns 0x180 (0002ms, 13057ms total)
T25FC 4641:257 JLINK_WriteReg(R0, 0x08041800)  returns 0x00 (0000ms, 13057ms total)
T25FC 4641:257 JLINK_WriteReg(R1, 0x00000400)  returns 0x00 (0000ms, 13057ms total)
T25FC 4641:257 JLINK_WriteReg(R2, 0x20000180)  returns 0x00 (0000ms, 13057ms total)
T25FC 4641:257 JLINK_WriteReg(R3, 0x00000000)  returns 0x00 (0000ms, 13057ms total)
T25FC 4641:257 JLINK_WriteReg(R4, 0x00000000)  returns 0x00 (0000ms, 13057ms total)
T25FC 4641:257 JLINK_WriteReg(R5, 0x00000000)  returns 0x00 (0000ms, 13057ms total)
T25FC 4641:257 JLINK_WriteReg(R6, 0x00000000)  returns 0x00 (0000ms, 13057ms total)
T25FC 4641:257 JLINK_WriteReg(R7, 0x00000000)  returns 0x00 (0000ms, 13057ms total)
T25FC 4641:257 JLINK_WriteReg(R8, 0x00000000)  returns 0x00 (0000ms, 13057ms total)
T25FC 4641:257 JLINK_WriteReg(R9, 0x2000017C)  returns 0x00 (0000ms, 13057ms total)
T25FC 4641:257 JLINK_WriteReg(R10, 0x00000000)  returns 0x00 (0000ms, 13057ms total)
T25FC 4641:257 JLINK_WriteReg(R11, 0x00000000)  returns 0x00 (0000ms, 13057ms total)
T25FC 4641:257 JLINK_WriteReg(R12, 0x00000000)  returns 0x00 (0000ms, 13057ms total)
T25FC 4641:257 JLINK_WriteReg(R13 (SP), 0x20001000)  returns 0x00 (0000ms, 13057ms total)
T25FC 4641:257 JLINK_WriteReg(R14, 0x20000001)  returns 0x00 (0000ms, 13057ms total)
T25FC 4641:257 JLINK_WriteReg(R15 (PC), 0x20000108)  returns 0x00 (0000ms, 13057ms total)
T25FC 4641:257 JLINK_WriteReg(XPSR, 0x01000000)  returns 0x00 (0000ms, 13057ms total)
T25FC 4641:257 JLINK_WriteReg(MSP, 0x20001000)  returns 0x00 (0000ms, 13057ms total)
T25FC 4641:257 JLINK_WriteReg(PSP, 0x20001000)  returns 0x00 (0000ms, 13057ms total)
T25FC 4641:257 JLINK_WriteReg(CFBP, 0x00000000)  returns 0x00 (0001ms, 13058ms total)
T25FC 4641:258 JLINK_SetBPEx(Addr = 0x20000000, Type = 0xFFFFFFF2)  returns 0x0000000B (0000ms, 13058ms total)
T25FC 4641:258 JLINK_Go() -- CPU_ReadMem(4 bytes @ 0xE0001000) (0002ms, 13060ms total)
T25FC 4641:260 JLINK_IsHalted()  returns FALSE (0001ms, 13061ms total)
T25FC 4641:262 JLINK_IsHalted()  returns FALSE (0000ms, 13060ms total)
T25FC 4641:263 JLINK_IsHalted()  returns FALSE (0000ms, 13060ms total)
T25FC 4641:264 JLINK_IsHalted()  returns FALSE (0000ms, 13060ms total)
T25FC 4641:265 JLINK_IsHalted() -- CPU_ReadMem(2 bytes @ 0x20000000)  returns TRUE (0003ms, 13063ms total)
T25FC 4641:268 JLINK_ReadReg(R15 (PC))  returns 0x20000000 (0000ms, 13060ms total)
T25FC 4641:268 JLINK_ClrBPEx(BPHandle = 0x0000000B)  returns 0x00 (0000ms, 13060ms total)
T25FC 4641:268 JLINK_ReadReg(R0)  returns 0x00000000 (0000ms, 13060ms total)
T25FC 4641:269 JLINK_WriteMem(0x20000180, 0x0280 Bytes, ...) - Data: 20 23 03 EB 41 01 88 B2 00 23 F1 21 0C F0 1C FB ... -- CPU_WriteMem(640 bytes @ 0x20000180)  returns 0x280 (0003ms, 13063ms total)
T25FC 4641:272 JLINK_WriteMem(0x20000400, 0x0180 Bytes, ...) - Data: 01 90 13 E0 01 99 C1 EB C1 01 0A 19 01 99 C1 EB ... -- CPU_WriteMem(384 bytes @ 0x20000400)  returns 0x180 (0002ms, 13065ms total)
T25FC 4641:274 JLINK_WriteReg(R0, 0x08041C00)  returns 0x00 (0000ms, 13065ms total)
T25FC 4641:274 JLINK_WriteReg(R1, 0x00000400)  returns 0x00 (0000ms, 13065ms total)
T25FC 4641:274 JLINK_WriteReg(R2, 0x20000180)  returns 0x00 (0000ms, 13065ms total)
T25FC 4641:274 JLINK_WriteReg(R3, 0x00000000)  returns 0x00 (0000ms, 13065ms total)
T25FC 4641:274 JLINK_WriteReg(R4, 0x00000000)  returns 0x00 (0000ms, 13065ms total)
T25FC 4641:274 JLINK_WriteReg(R5, 0x00000000)  returns 0x00 (0000ms, 13065ms total)
T25FC 4641:274 JLINK_WriteReg(R6, 0x00000000)  returns 0x00 (0000ms, 13065ms total)
T25FC 4641:274 JLINK_WriteReg(R7, 0x00000000)  returns 0x00 (0000ms, 13065ms total)
T25FC 4641:274 JLINK_WriteReg(R8, 0x00000000)  returns 0x00 (0000ms, 13065ms total)
T25FC 4641:274 JLINK_WriteReg(R9, 0x2000017C)  returns 0x00 (0000ms, 13065ms total)
T25FC 4641:274 JLINK_WriteReg(R10, 0x00000000)  returns 0x00 (0000ms, 13065ms total)
T25FC 4641:274 JLINK_WriteReg(R11, 0x00000000)  returns 0x00 (0000ms, 13065ms total)
T25FC 4641:274 JLINK_WriteReg(R12, 0x00000000)  returns 0x00 (0000ms, 13065ms total)
T25FC 4641:274 JLINK_WriteReg(R13 (SP), 0x20001000)  returns 0x00 (0000ms, 13065ms total)
T25FC 4641:274 JLINK_WriteReg(R14, 0x20000001)  returns 0x00 (0000ms, 13065ms total)
T25FC 4641:274 JLINK_WriteReg(R15 (PC), 0x20000108)  returns 0x00 (0000ms, 13065ms total)
T25FC 4641:274 JLINK_WriteReg(XPSR, 0x01000000)  returns 0x00 (0000ms, 13065ms total)
T25FC 4641:274 JLINK_WriteReg(MSP, 0x20001000)  returns 0x00 (0000ms, 13065ms total)
T25FC 4641:274 JLINK_WriteReg(PSP, 0x20001000)  returns 0x00 (0000ms, 13065ms total)
T25FC 4641:274 JLINK_WriteReg(CFBP, 0x00000000)  returns 0x00 (0000ms, 13065ms total)
T25FC 4641:274 JLINK_SetBPEx(Addr = 0x20000000, Type = 0xFFFFFFF2)  returns 0x0000000C (0000ms, 13065ms total)
T25FC 4641:274 JLINK_Go() -- CPU_ReadMem(4 bytes @ 0xE0001000) (0003ms, 13068ms total)
T25FC 4641:277 JLINK_IsHalted()  returns FALSE (0001ms, 13069ms total)
T25FC 4641:279 JLINK_IsHalted()  returns FALSE (0003ms, 13071ms total)
T25FC 4641:286 JLINK_IsHalted() -- CPU_ReadMem(2 bytes @ 0x20000000)  returns TRUE (0004ms, 13072ms total)
T25FC 4641:290 JLINK_ReadReg(R15 (PC))  returns 0x20000000 (0000ms, 13068ms total)
T25FC 4641:290 JLINK_ClrBPEx(BPHandle = 0x0000000C)  returns 0x00 (0000ms, 13068ms total)
T25FC 4641:290 JLINK_ReadReg(R0)  returns 0x00000000 (0000ms, 13068ms total)
T25FC 4641:291 JLINK_WriteMem(0x20000180, 0x0280 Bytes, ...) - Data: F7 E0 C0 4A 46 21 C8 20 0C F0 1E F9 04 2C 01 D1 ... -- CPU_WriteMem(640 bytes @ 0x20000180)  returns 0x280 (0002ms, 13070ms total)
T25FC 4641:293 JLINK_WriteMem(0x20000400, 0x0180 Bytes, ...) - Data: 88 6F 00 23 07 22 04 21 04 F0 EE FA 00 23 1C 4A ... -- CPU_WriteMem(384 bytes @ 0x20000400)  returns 0x180 (0002ms, 13072ms total)
T25FC 4641:295 JLINK_WriteReg(R0, 0x08042000)  returns 0x00 (0000ms, 13072ms total)
T25FC 4641:295 JLINK_WriteReg(R1, 0x00000400)  returns 0x00 (0000ms, 13072ms total)
T25FC 4641:295 JLINK_WriteReg(R2, 0x20000180)  returns 0x00 (0000ms, 13072ms total)
T25FC 4641:295 JLINK_WriteReg(R3, 0x00000000)  returns 0x00 (0000ms, 13072ms total)
T25FC 4641:295 JLINK_WriteReg(R4, 0x00000000)  returns 0x00 (0000ms, 13072ms total)
T25FC 4641:295 JLINK_WriteReg(R5, 0x00000000)  returns 0x00 (0000ms, 13072ms total)
T25FC 4641:295 JLINK_WriteReg(R6, 0x00000000)  returns 0x00 (0000ms, 13072ms total)
T25FC 4641:295 JLINK_WriteReg(R7, 0x00000000)  returns 0x00 (0000ms, 13072ms total)
T25FC 4641:295 JLINK_WriteReg(R8, 0x00000000)  returns 0x00 (0000ms, 13072ms total)
T25FC 4641:295 JLINK_WriteReg(R9, 0x2000017C)  returns 0x00 (0000ms, 13072ms total)
T25FC 4641:295 JLINK_WriteReg(R10, 0x00000000)  returns 0x00 (0000ms, 13072ms total)
T25FC 4641:295 JLINK_WriteReg(R11, 0x00000000)  returns 0x00 (0000ms, 13072ms total)
T25FC 4641:295 JLINK_WriteReg(R12, 0x00000000)  returns 0x00 (0000ms, 13072ms total)
T25FC 4641:295 JLINK_WriteReg(R13 (SP), 0x20001000)  returns 0x00 (0000ms, 13072ms total)
T25FC 4641:295 JLINK_WriteReg(R14, 0x20000001)  returns 0x00 (0000ms, 13072ms total)
T25FC 4641:296 JLINK_WriteReg(R15 (PC), 0x20000108)  returns 0x00 (0000ms, 13073ms total)
T25FC 4641:296 JLINK_WriteReg(XPSR, 0x01000000)  returns 0x00 (0000ms, 13073ms total)
T25FC 4641:296 JLINK_WriteReg(MSP, 0x20001000)  returns 0x00 (0000ms, 13073ms total)
T25FC 4641:296 JLINK_WriteReg(PSP, 0x20001000)  returns 0x00 (0000ms, 13073ms total)
T25FC 4641:296 JLINK_WriteReg(CFBP, 0x00000000)  returns 0x00 (0000ms, 13073ms total)
T25FC 4641:296 JLINK_SetBPEx(Addr = 0x20000000, Type = 0xFFFFFFF2)  returns 0x0000000D (0000ms, 13073ms total)
T25FC 4641:296 JLINK_Go() -- CPU_ReadMem(4 bytes @ 0xE0001000) (0002ms, 13075ms total)
T25FC 4641:298 JLINK_IsHalted()  returns FALSE (0001ms, 13076ms total)
T25FC 4641:300 JLINK_IsHalted()  returns FALSE (0000ms, 13075ms total)
T25FC 4641:301 JLINK_IsHalted()  returns FALSE (0000ms, 13075ms total)
T25FC 4641:302 JLINK_IsHalted()  returns FALSE (0000ms, 13075ms total)
T25FC 4641:303 JLINK_IsHalted() -- CPU_ReadMem(2 bytes @ 0x20000000)  returns TRUE (0003ms, 13078ms total)
T25FC 4641:306 JLINK_ReadReg(R15 (PC))  returns 0x20000000 (0000ms, 13075ms total)
T25FC 4641:306 JLINK_ClrBPEx(BPHandle = 0x0000000D)  returns 0x00 (0000ms, 13075ms total)
T25FC 4641:306 JLINK_ReadReg(R0)  returns 0x00000000 (0000ms, 13075ms total)
T25FC 4641:307 JLINK_WriteMem(0x20000180, 0x0280 Bytes, ...) - Data: 15 49 08 60 17 48 48 60 17 48 90 F8 F8 01 08 B1 ... -- CPU_WriteMem(640 bytes @ 0x20000180)  returns 0x280 (0002ms, 13077ms total)
T25FC 4641:309 JLINK_WriteMem(0x20000400, 0x0180 Bytes, ...) - Data: 00 23 78 A2 FB 21 DC 20 0B F0 DE FD 00 23 79 A2 ... -- CPU_WriteMem(384 bytes @ 0x20000400)  returns 0x180 (0002ms, 13079ms total)
T25FC 4641:311 JLINK_WriteReg(R0, 0x08042400)  returns 0x00 (0000ms, 13079ms total)
T25FC 4641:311 JLINK_WriteReg(R1, 0x00000400)  returns 0x00 (0000ms, 13079ms total)
T25FC 4641:311 JLINK_WriteReg(R2, 0x20000180)  returns 0x00 (0000ms, 13079ms total)
T25FC 4641:311 JLINK_WriteReg(R3, 0x00000000)  returns 0x00 (0000ms, 13079ms total)
T25FC 4641:312 JLINK_WriteReg(R4, 0x00000000)  returns 0x00 (0000ms, 13079ms total)
T25FC 4641:312 JLINK_WriteReg(R5, 0x00000000)  returns 0x00 (0000ms, 13079ms total)
T25FC 4641:312 JLINK_WriteReg(R6, 0x00000000)  returns 0x00 (0000ms, 13079ms total)
T25FC 4641:312 JLINK_WriteReg(R7, 0x00000000)  returns 0x00 (0000ms, 13079ms total)
T25FC 4641:312 JLINK_WriteReg(R8, 0x00000000)  returns 0x00 (0000ms, 13079ms total)
T25FC 4641:312 JLINK_WriteReg(R9, 0x2000017C)  returns 0x00 (0000ms, 13079ms total)
T25FC 4641:312 JLINK_WriteReg(R10, 0x00000000)  returns 0x00 (0000ms, 13079ms total)
T25FC 4641:312 JLINK_WriteReg(R11, 0x00000000)  returns 0x00 (0000ms, 13079ms total)
T25FC 4641:312 JLINK_WriteReg(R12, 0x00000000)  returns 0x00 (0000ms, 13079ms total)
T25FC 4641:312 JLINK_WriteReg(R13 (SP), 0x20001000)  returns 0x00 (0000ms, 13079ms total)
T25FC 4641:312 JLINK_WriteReg(R14, 0x20000001)  returns 0x00 (0000ms, 13079ms total)
T25FC 4641:312 JLINK_WriteReg(R15 (PC), 0x20000108)  returns 0x00 (0000ms, 13079ms total)
T25FC 4641:312 JLINK_WriteReg(XPSR, 0x01000000)  returns 0x00 (0000ms, 13079ms total)
T25FC 4641:312 JLINK_WriteReg(MSP, 0x20001000)  returns 0x00 (0000ms, 13079ms total)
T25FC 4641:312 JLINK_WriteReg(PSP, 0x20001000)  returns 0x00 (0000ms, 13079ms total)
